;$FILEVERSION=1.3
;$STARTTIME=43257.4463558967
;
;   E:\work\YCH\work\obc\OBC\code\develop\TEST_C1_V2.1\S50\20180606 IOP05D20C2012D05\powerOnTest.trc
;   Start time: 2018/6/6 10:42:45.149.4
;   Generated by PCAN-Explorer v5.4.1
;-------------------------------------------------------------------------------
;   Bus  Name         Connection           Protocol  Bit rate
;   1    Connection1  500kBitCan@pcan_usb  CAN       500 kbit/s
;-------------------------------------------------------------------------------
;   Message Number
;   |         Time Offset (ms)
;   |         |       Bus
;   |         |       |    Type
;   |         |       |    |       ID (hex)
;   |         |       |    |       |    Reserved
;   |         |       |    |       |    |   Data Length Code
;   |         |       |    |       |    |   |    Data Bytes (hex) ...
;   |         |       |    |       |    |   |    |
;   |         |       |    |       |    |   |    |
;---+-- ------+------ +- --+-- ----+--- +- -+-- -+ -- -- -- -- -- -- --
     1)       119.288 1  Rx        0635 -  8    07 01 01 00 23 00 00 00 
     2)      1355.599 1  Rx        0635 -  8    01 00 23 00 00 00 00 00 
     3)      1487.587 1  Rx        0635 -  8    01 00 23 00 00 00 00 00 
     4)      1619.534 1  Rx        0635 -  8    01 00 23 00 00 00 00 00 
     5)      1753.427 1  Rx        0635 -  8    07 01 01 00 23 00 00 00 
     6)      1887.582 1  Rx        0635 -  8    07 01 01 00 23 00 00 00 
     7)      2018.945 1  Rx        0635 -  8    07 01 01 00 23 00 00 00 
     8)      2160.725 1  Rx        0635 -  8    01 00 23 00 00 00 00 00 
     9)      2293.838 1  Rx        0635 -  8    01 00 23 00 00 00 00 00 
    10)      2428.784 1  Rx        0635 -  8    01 00 23 00 00 00 00 00 
    11)      2565.022 1  Rx        0635 -  8    07 01 01 00 23 00 00 00 
    12)      2696.454 1  Rx        0635 -  8    07 01 01 00 23 00 00 00 
    13)      2832.234 1  Rx        0635 -  8    07 01 01 00 23 00 00 00 
    14)      3976.805 1  Rx        0635 -  8    01 00 23 00 00 00 00 00 
    15)      4114.168 1  Rx        0635 -  8    01 00 23 00 00 00 00 00 
    16)      4245.490 1  Rx        0635 -  8    01 00 23 00 00 00 00 00 
    17)      4377.353 1  Rx        0635 -  8    07 01 01 00 23 00 00 00 
    18)      4511.466 1  Rx        0635 -  8    07 01 01 00 23 00 00 00 
    19)      4646.413 1  Rx        0635 -  8    07 01 01 00 23 00 00 00 
    20)      4791.693 1  Rx        0635 -  8    01 00 23 00 00 00 00 00 
    21)      4926.639 1  Rx        0635 -  8    01 00 23 00 00 00 00 00 
    22)      5094.041 1  Rx        0635 -  8    01 00 23 00 00 00 00 00 
    23)      5229.904 1  Rx        0635 -  8    07 01 01 00 23 00 00 00 
    24)      5361.268 1  Rx        0635 -  8    07 01 01 00 23 00 00 00 
    25)      5494.048 1  Rx        0635 -  8    07 01 01 00 23 00 00 00 
    26)      5948.033 1  Rx        0123 -  8    0B C0 10 10 00 00 00 00 
    27)      6125.184 1  Rx        0456 -  8    00 01 02 03 04 05 06 07 
    28)      6224.050 1  Rx        04FE -  8    20 01 90 00 0A 4D 00 21 
    29)      6324.416 1  Rx        04FE -  8    20 01 90 00 0A 4D 00 22 
    30)      6420.741 1  Rx        04FF -  8    10 00 01 F3 00 00 00 00 
    31)      6424.783 1  Rx        04FE -  8    20 01 90 00 09 4D 00 23 
    32)      6521.107 1  Rx        04FF -  8    10 00 01 F3 00 00 00 00 
    33)      6525.107 1  Rx        04FE -  8    20 01 90 00 09 4D 00 24 
    34)      6621.474 1  Rx        04FF -  8    10 00 01 F3 00 00 00 00 
    35)      6625.473 1  Rx        04FE -  8    20 01 90 00 09 4D 00 25 
    36)      6701.092 1  Rx        0635 -  8    01 00 23 00 00 00 00 00 
    37)      6701.675 1  Rx        0636 -  8    FF 00 00 FE 00 23 00 00 
    38)      6713.966 1  Rx        0635 -  8    1B 01 02 01 00 00 00 00 
    39)      6715.715 1  Rx        0636 -  8    FF 00 01 02 01 23 00 00 
    40)      6720.173 1  Rx        0635 -  8    17 02 49 6E 63 61 4D 43 
    41)      6721.756 1  Rx        0636 -  8    FF 00 02 08 00 03 00 8E 
    42)      6722.006 1  Rx        04FF -  8    10 00 01 F2 00 00 00 00 
    43)      6725.839 1  Rx        04FE -  8    20 01 90 00 09 4D 00 26 
    44)      6728.131 1  Rx        0635 -  8    04 03 05 00 00 00 00 00 
    45)      6729.797 1  Rx        0636 -  8    FF 00 03 45 43 55 30 30 
    46)      6734.130 1  Rx        0635 -  8    04 04 03 00 00 00 00 00 
    47)      6735.797 1  Rx        0636 -  8    FF 00 04 30 30 31 30 30 
    48)      6746.921 1  Rx        0635 -  8    0D 05 00 00 00 00 00 00 
    49)      6747.838 1  Rx        0636 -  8    FF 00 05 00 00 31 30 30 
    50)      6812.052 1  Rx        0635 -  8    09 06 00 00 00 00 00 00 
    51)      6814.094 1  Rx        0636 -  8    FF 00 06 00 00 80 00 00 
    52)      6822.176 1  Rx        04FF -  8    10 00 01 F2 00 00 00 00 
    53)      6826.218 1  Rx        04FE -  8    20 01 90 00 09 4D 00 27 
    54)      6922.542 1  Rx        04FF -  8    10 00 01 F2 00 00 00 00 
    55)      6926.584 1  Rx        04FE -  8    20 01 90 00 09 4D 00 28 
    56)      7022.909 1  Rx        04FF -  8    10 00 01 F2 00 00 00 00 
    57)      7026.950 1  Rx        04FE -  8    20 01 90 00 09 4D 00 29 
    58)      7123.275 1  Rx        04FF -  8    10 00 01 F2 00 00 00 00 
    59)      7127.316 1  Rx        04FE -  8    20 01 90 00 09 4D 00 2A 
    60)      7223.641 1  Rx        04FF -  8    10 00 01 F2 00 00 00 00 
    61)      7227.682 1  Rx        04FE -  8    20 01 90 00 0A 4D 00 2B 
    62)      7324.007 1  Rx        04FF -  8    10 00 01 F2 00 00 00 00 
    63)      7328.048 1  Rx        04FE -  8    20 01 90 00 0A 4D 00 2C 
    64)      7424.373 1  Rx        04FF -  8    10 00 01 F2 00 00 00 00 
    65)      7428.373 1  Rx        04FE -  8    20 01 90 00 09 4D 00 2D 
    66)      7524.739 1  Rx        04FF -  8    10 00 01 F2 00 00 00 00 
    67)      7528.739 1  Rx        04FE -  8    20 01 90 00 09 4D 00 2E 
    68)      7625.106 1  Rx        04FF -  8    10 00 01 F2 00 00 00 00 
    69)      7629.105 1  Rx        04FE -  8    20 01 90 00 0A 4D 00 20 
    70)      7725.472 1  Rx        04FF -  8    10 00 01 F2 00 00 00 00 
    71)      7729.471 1  Rx        04FE -  8    20 01 90 00 0A 4D 00 21 
    72)      7825.826 1  Rx        04FF -  8    10 00 01 F2 00 00 00 00 
    73)      7829.868 1  Rx        04FE -  8    20 01 90 00 0A 4D 00 22 
    74)      7926.192 1  Rx        04FF -  8    10 00 01 F2 00 00 00 00 
    75)      7930.234 1  Rx        04FE -  8    20 01 90 00 09 4D 00 23 
    76)      8026.559 1  Rx        04FF -  8    10 00 01 F1 00 00 00 00 
    77)      8030.600 1  Rx        04FE -  8    20 01 90 00 09 4D 00 24 
    78)      8126.925 1  Rx        04FF -  8    10 00 01 F1 00 00 00 00 
    79)      8130.966 1  Rx        04FE -  8    20 01 90 00 09 4D 00 25 
    80)      8227.291 1  Rx        04FF -  8    10 00 01 F1 00 00 00 00 
    81)      8231.332 1  Rx        04FE -  8    20 01 90 00 09 4D 00 26 
    82)      8327.657 1  Rx        04FF -  8    10 00 01 F1 00 00 00 00 
    83)      8331.698 1  Rx        04FE -  8    20 01 90 00 09 4D 00 27 
    84)      8428.023 1  Rx        04FF -  8    10 00 01 F1 00 00 00 00 
    85)      8432.023 1  Rx        04FE -  8    20 01 90 00 09 4D 00 28 
    86)      8528.389 1  Rx        04FF -  8    10 00 01 F1 00 00 00 00 
    87)      8532.389 1  Rx        04FE -  8    20 01 90 00 0A 4D 00 29 
    88)      8628.756 1  Rx        04FF -  8    10 00 01 F1 00 00 00 00 
    89)      8632.755 1  Rx        04FE -  8    20 01 90 00 09 4D 00 2A 
    90)      8729.163 1  Rx        04FF -  8    10 00 01 F1 00 00 00 00 
    91)      8733.163 1  Rx        04FE -  8    20 01 90 00 09 4D 00 2B 
    92)      8829.394 1  Rx        04FF -  8    10 00 01 F1 00 00 00 00 
    93)      8833.435 1  Rx        04FE -  8    20 01 90 00 0A 4D 00 2C 
    94)      8929.760 1  Rx        04FF -  8    10 00 01 F1 00 00 00 00 
    95)      8933.801 1  Rx        04FE -  8    20 01 90 00 09 4D 00 2D 
    96)      9030.126 1  Rx        04FF -  8    10 00 01 F1 00 00 00 00 
    97)      9034.168 1  Rx        04FE -  8    20 01 90 00 0A 4D 00 2E 
    98)      9130.492 1  Rx        04FF -  8    10 00 01 EF 00 00 00 00 
    99)      9134.534 1  Rx        04FE -  8    20 01 90 00 09 4D 00 20 
   100)      9230.859 1  Rx        04FF -  8    10 00 01 EF 00 00 00 00 
   101)      9234.900 1  Rx        04FE -  8    20 01 90 00 0A 4D 00 21 
   102)      9331.225 1  Rx        04FF -  8    10 00 01 EF 00 00 00 00 
   103)      9335.266 1  Rx        04FE -  8    20 01 90 00 09 4D 00 22 
   104)      9431.591 1  Rx        04FF -  8    10 00 01 EF 00 00 00 00 
   105)      9435.591 1  Rx        04FE -  8    20 01 90 00 09 4D 00 23 
   106)      9531.957 1  Rx        04FF -  8    10 00 01 EF 00 00 00 00 
   107)      9535.957 1  Rx        04FE -  8    20 01 90 00 0A 4D 00 24 
   108)      9632.323 1  Rx        04FF -  8    10 00 01 EF 00 00 00 00 
   109)      9636.323 1  Rx        04FE -  8    20 01 90 00 0A 4D 00 25 
   110)      9732.648 1  Rx        04FF -  8    10 00 01 EF 00 00 00 00 
   111)      9736.689 1  Rx        04FE -  8    20 01 90 00 09 4D 00 26 
   112)      9833.041 1  Rx        04FF -  8    10 00 01 EF 00 00 00 00 
   113)      9837.082 1  Rx        04FE -  8    20 01 90 00 09 4D 00 27 
   114)      9933.407 1  Rx        04FF -  8    10 00 01 EF 00 00 00 00 
   115)      9937.448 1  Rx        04FE -  8    20 01 90 00 09 4D 00 28 
   116)     10033.773 1  Rx        04FF -  8    10 00 01 EF 00 00 00 00 
   117)     10037.815 1  Rx        04FE -  8    20 01 90 00 0A 4D 00 29 
   118)     10134.140 1  Rx        04FF -  8    10 00 01 EF 00 00 00 00 
   119)     10138.181 1  Rx        04FE -  8    20 01 90 00 0A 4D 00 2A 
   120)     10146.013 1  Rx        0635 -  8    09 07 00 00 00 00 00 00 
   121)     10148.138 1  Rx        0636 -  8    FF 00 07 00 00 80 00 00 
   122)     10158.262 1  Rx        0635 -  8    02 08 00 00 40 00 00 00 
   123)     10160.179 1  Rx        0636 -  8    FF 00 08 00 00 80 00 00 
   124)     10170.053 1  Rx        0635 -  8    11 09 00 00 00 00 00 00 
   125)     10172.219 1  Rx        0636 -  8    FF 00 09 00 00 80 00 00 
   126)     10204.300 1  Rx        0635 -  8    09 0A 00 00 00 00 00 00 
   127)     10206.341 1  Rx        0636 -  8    FF 00 0A 00 00 80 00 00 
   128)     10234.506 1  Rx        04FF -  8    10 00 01 EF 00 00 00 00 
   129)     10238.547 1  Rx        04FE -  8    20 01 90 00 0A 4D 00 2B 
   130)     10334.872 1  Rx        04FF -  8    10 00 01 EF 00 00 00 00 
   131)     10338.913 1  Rx        04FE -  8    20 01 90 00 09 4D 00 2C 
   132)     10435.238 1  Rx        04FF -  8    10 00 01 EE 00 00 00 00 
   133)     10439.238 1  Rx        04FE -  8    20 01 90 00 09 4D 00 2D 
   134)     10535.604 1  Rx        04FF -  8    10 00 01 EE 00 00 00 00 
   135)     10539.604 1  Rx        04FE -  8    20 01 90 00 09 4D 00 2E 
   136)     10556.644 1  Rx        0635 -  8    09 0B 00 00 00 00 00 00 
   137)     10557.602 1  Rx        0636 -  8    FF 00 0B 00 00 80 00 00 
   138)     10635.970 1  Rx        04FF -  8    10 00 01 EE 00 00 00 00 
   139)     10639.970 1  Rx        04FE -  8    20 01 90 00 09 4D 00 20 
   140)     10736.295 1  Rx        04FF -  8    10 00 01 EE 00 00 00 00 
   141)     10740.336 1  Rx        04FE -  8    20 01 90 00 0A 4D 00 21 
   142)     10836.661 1  Rx        04FF -  8    10 00 01 EE 00 00 00 00 
   143)     10840.702 1  Rx        04FE -  8    20 01 90 00 09 4D 00 22 
   144)     10937.036 1  Rx        04FF -  8    10 00 01 EE 00 00 00 00 
   145)     10941.077 1  Rx        04FE -  8    20 01 90 00 09 4D 00 23 
   146)     11037.402 1  Rx        04FF -  8    10 00 01 EE 00 00 00 00 
   147)     11041.444 1  Rx        04FE -  8    20 01 90 00 09 4D 00 24 
   148)     11137.769 1  Rx        04FF -  8    10 00 01 EE 00 00 00 00 
   149)     11141.810 1  Rx        04FE -  8    20 01 90 00 0A 4D 00 25 
   150)     11238.135 1  Rx        04FF -  8    10 00 01 EE 00 00 00 00 
   151)     11242.176 1  Rx        04FE -  8    20 01 90 00 09 4D 00 26 
   152)     11338.501 1  Rx        04FF -  8    10 00 01 EE 00 00 00 00 
   153)     11342.500 1  Rx        04FE -  8    20 01 90 00 09 4D 00 27 
   154)     11438.867 1  Rx        04FF -  8    10 00 01 EE 00 00 00 00 
   155)     11442.867 1  Rx        04FE -  8    20 01 90 00 0A 4D 00 28 
   156)     11539.275 1  Rx        04FF -  8    10 00 01 EE 00 00 00 00 
   157)     11543.274 1  Rx        04FE -  8    20 01 90 00 0A 4D 00 29 
   158)     11639.599 1  Rx        04FF -  8    10 00 01 ED 00 00 00 00 
   159)     11643.641 1  Rx        04FE -  8    20 01 90 00 0A 4D 00 2A 
   160)     11739.966 1  Rx        04FF -  8    10 00 01 ED 00 00 00 00 
   161)     11744.007 1  Rx        04FE -  8    20 01 90 00 09 4D 00 2B 
   162)     11840.332 1  Rx        04FF -  8    10 00 01 ED 00 00 00 00 
   163)     11844.373 1  Rx        04FE -  8    20 01 90 00 09 4D 00 2C 
   164)     11940.683 1  Rx        04FF -  8    10 00 01 ED 00 00 00 00 
   165)     11944.724 1  Rx        04FE -  8    20 01 90 00 09 4D 00 2D 
   166)     12041.049 1  Rx        04FF -  8    10 00 01 ED 00 00 00 00 
   167)     12045.090 1  Rx        04FE -  8    20 01 90 00 0A 4D 00 2E 
   168)     12141.415 1  Rx        04FF -  8    10 00 01 ED 00 00 00 00 
   169)     12145.456 1  Rx        04FE -  8    20 01 90 00 0A 4D 00 20 
   170)     12241.781 1  Rx        04FF -  8    10 00 01 ED 00 00 00 00 
   171)     12245.823 1  Rx        04FE -  8    20 01 90 00 09 4D 00 21 
   172)     12342.148 1  Rx        04FF -  8    10 00 01 ED 00 00 00 00 
   173)     12346.147 1  Rx        04FE -  8    20 01 90 00 09 4D 00 22 
   174)     12430.015 1  Rx        0635 -  8    0D 0C 00 00 00 00 00 00 
   175)     12430.390 1  Rx        0636 -  8    FF 00 0C 00 00 80 00 00 
   176)     12442.514 1  Rx        04FF -  8    10 00 01 ED 00 00 00 00 
   177)     12446.513 1  Rx        04FE -  8    20 01 90 00 09 4D 00 23 
   178)     12542.880 1  Rx        04FF -  8    10 00 01 ED 00 00 00 00 
   179)     12546.879 1  Rx        04FE -  8    20 01 90 00 0A 4D 00 24 
   180)     12643.204 1  Rx        04FF -  8    10 00 01 ED 00 00 00 00 
   181)     12647.246 1  Rx        04FE -  8    20 01 90 00 09 4D 00 25 
   182)     12743.571 1  Rx        04FF -  8    10 00 01 ED 00 00 00 00 
   183)     12747.612 1  Rx        04FE -  8    20 01 90 00 0A 4D 00 26 
   184)     12843.937 1  Rx        04FF -  8    10 00 01 EC 00 00 00 00 
   185)     12847.978 1  Rx        04FE -  8    20 01 90 00 09 4D 00 27 
   186)     12857.685 1  Rx        0635 -  8    0D 0D 00 00 00 00 00 00 
   187)     12857.935 1  Rx        0636 -  8    FF 00 0D 00 00 80 00 00 
   188)     12944.333 1  Rx        04FF -  8    10 00 01 EC 00 00 00 00 
   189)     12948.374 1  Rx        04FE -  8    20 01 90 00 09 4D 00 28 
   190)     12959.123 1  Rx        0635 -  8    0D 0E 00 00 00 00 00 00 
   191)     12960.331 1  Rx        0636 -  8    FF 00 0E 00 00 80 00 00 
   192)     12970.539 1  Rx        0635 -  8    0D 0F 00 00 00 00 00 00 
   193)     12972.372 1  Rx        0636 -  8    FF 00 0F 00 00 80 00 00 
   194)     12977.413 1  Rx        0635 -  8    14 10 00 00 00 00 06 36 
   195)     12978.663 1  Rx        0636 -  8    FF 00 10 14 00 80 00 00 
   196)     12988.454 1  Rx        0635 -  8    15 11 00 00 00 00 00 00 
   197)     12990.454 1  Rx        0636 -  8    FF 00 11 14 00 80 00 00 
   198)     13002.619 1  Rx        0635 -  8    16 12 02 00 40 00 19 4A 
   199)     13004.494 1  Rx        0636 -  8    FF 00 12 14 00 80 00 00 
   200)     13007.661 1  Rx        0635 -  8    15 13 00 00 01 00 00 00 
   201)     13008.494 1  Rx        0636 -  8    FF 00 13 14 00 80 00 00 
   202)     13013.410 1  Rx        0635 -  8    16 14 02 00 40 00 19 4C 
   203)     13014.535 1  Rx        0636 -  8    FF 00 14 14 00 80 00 00 
   204)     13025.451 1  Rx        0635 -  8    15 15 00 00 02 00 00 00 
   205)     13026.576 1  Rx        0636 -  8    FF 00 15 14 00 80 00 00 
   206)     13036.616 1  Rx        0635 -  8    16 16 02 00 40 00 19 4E 
   207)     13038.616 1  Rx        0636 -  8    FF 00 16 14 00 80 00 00 
   208)     13044.699 1  Rx        04FF -  8    10 00 01 EC 00 00 00 00 
   209)     13047.990 1  Rx        0635 -  8    15 17 00 00 03 00 00 00 
   210)     13048.657 1  Rx        0636 -  8    FF 00 17 14 00 80 00 00 
   211)     13048.907 1  Rx        04FE -  8    20 01 90 00 09 4D 00 29 
   212)     13054.656 1  Rx        0635 -  8    16 18 01 00 40 00 1A 2B 
   213)     13056.698 1  Rx        0636 -  8    FF 00 18 14 00 80 00 00 
   214)     13060.531 1  Rx        0635 -  8    14 19 01 00 00 00 06 36 
   215)     13062.947 1  Rx        0636 -  8    FF 00 19 14 14 80 00 00 
   216)     13066.655 1  Rx        0635 -  8    15 1A 01 00 00 00 00 00 
   217)     13068.739 1  Rx        0636 -  8    FF 00 1A 14 14 80 00 00 
   218)     13072.488 1  Rx        0635 -  8    16 1B 04 00 40 00 1A B8 
   219)     13074.738 1  Rx        0636 -  8    FF 00 1B 14 14 80 00 00 
   220)     13078.696 1  Rx        0635 -  8    15 1C 01 00 01 00 00 00 
   221)     13080.779 1  Rx        0636 -  8    FF 00 1C 14 14 80 00 00 
   222)     13084.695 1  Rx        0635 -  8    16 1D 02 00 40 00 19 32 
   223)     13086.779 1  Rx        0636 -  8    FF 00 1D 14 14 80 00 00 
   224)     13090.570 1  Rx        0635 -  8    15 1E 01 00 02 00 00 00 
   225)     13092.820 1  Rx        0636 -  8    FF 00 1E 14 14 80 00 00 
   226)     13096.694 1  Rx        0635 -  8    16 1F 01 00 40 00 1A 3A 
   227)     13098.819 1  Rx        0636 -  8    FF 00 1F 14 14 80 00 00 
   228)     13102.569 1  Rx        0635 -  8    15 20 01 01 00 00 00 00 
   229)     13102.861 1  Rx        0636 -  8    FF 00 20 14 14 80 00 00 
   230)     13108.777 1  Rx        0635 -  8    16 21 02 00 40 00 19 3E 
   231)     13110.860 1  Rx        0636 -  8    FF 00 21 14 14 80 00 00 
   232)     13114.735 1  Rx        0635 -  8    15 22 01 01 01 00 00 00 
   233)     13116.901 1  Rx        0636 -  8    FF 00 22 14 14 80 00 00 
   234)     13120.526 1  Rx        0635 -  8    16 23 02 00 40 00 19 48 
   235)     13120.901 1  Rx        0636 -  8    FF 00 23 14 14 80 00 00 
   236)     13126.692 1  Rx        0635 -  8    15 24 01 01 02 00 00 00 
   237)     13128.942 1  Rx        0636 -  8    FF 00 24 14 14 80 00 00 
   238)     13132.733 1  Rx        0635 -  8    16 25 02 00 40 00 1A 48 
   239)     13134.941 1  Rx        0636 -  8    FF 00 25 14 14 80 00 00 
   240)     13138.566 1  Rx        0635 -  8    15 26 01 01 03 00 00 00 
   241)     13138.982 1  Rx        0636 -  8    FF 00 26 14 14 80 00 00 
   242)     13144.774 1  Rx        0635 -  8    16 27 01 00 40 00 1A 3B 
   243)     13145.065 1  Rx        04FF -  8    10 00 01 EC 00 00 00 00 
   244)     13147.023 1  Rx        0636 -  8    FF 00 27 14 14 80 00 00 
   245)     13149.106 1  Rx        04FE -  8    20 01 90 00 09 4D 00 2A 
   246)     13152.606 1  Rx        0635 -  8    15 28 01 02 00 00 00 00 
   247)     13153.023 1  Rx        0636 -  8    FF 00 28 14 14 80 00 00 
   248)     13158.731 1  Rx        0635 -  8    16 29 01 00 40 00 1A 3C 
   249)     13159.064 1  Rx        0636 -  8    FF 00 29 14 14 80 00 00 
   250)     13164.605 1  Rx        0635 -  8    15 2A 01 02 01 00 00 00 
   251)     13165.063 1  Rx        0636 -  8    FF 00 2A 14 14 80 00 00 
   252)     13170.730 1  Rx        0635 -  8    16 2B 01 00 40 00 1A 3D 
   253)     13171.105 1  Rx        0636 -  8    FF 00 2B 14 14 80 00 00 
   254)     13176.729 1  Rx        0635 -  8    15 2C 01 02 02 00 00 00 
   255)     13177.104 1  Rx        0636 -  8    FF 00 2C 14 14 80 00 00 
   256)     13182.645 1  Rx        0635 -  8    16 2D 01 00 40 00 1A 3E 
   257)     13183.145 1  Rx        0636 -  8    FF 00 2D 14 14 80 00 00 
   258)     13190.561 1  Rx        0635 -  8    15 2E 01 02 03 00 00 00 
   259)     13191.144 1  Rx        0636 -  8    FF 00 2E 14 14 80 00 00 
   260)     13196.519 1  Rx        0635 -  8    16 2F 01 00 40 00 1A 3F 
   261)     13197.186 1  Rx        0636 -  8    FF 00 2F 14 14 80 00 00 
   262)     13202.768 1  Rx        0635 -  8    15 30 01 02 04 00 00 00 
   263)     13203.227 1  Rx        0636 -  8    FF 00 30 14 14 80 00 00 
   264)     13208.810 1  Rx        0635 -  8    16 31 01 00 40 00 1A 40 
   265)     13209.226 1  Rx        0636 -  8    FF 00 31 14 14 80 00 00 
   266)     13214.642 1  Rx        0635 -  8    15 32 01 02 05 00 00 00 
   267)     13215.267 1  Rx        0636 -  8    FF 00 32 14 14 80 00 00 
   268)     13220.767 1  Rx        0635 -  8    16 33 01 00 40 00 1A 41 
   269)     13221.267 1  Rx        0636 -  8    FF 00 33 14 14 80 00 00 
   270)     13226.766 1  Rx        0635 -  8    15 34 01 02 06 00 00 00 
   271)     13227.308 1  Rx        0636 -  8    FF 00 34 14 14 80 00 00 
   272)     13232.849 1  Rx        0635 -  8    16 35 01 00 40 00 1A 50 
   273)     13233.307 1  Rx        0636 -  8    FF 00 35 14 14 80 00 00 
   274)     13238.807 1  Rx        0635 -  8    15 36 01 03 00 00 00 00 
   275)     13239.349 1  Rx        0636 -  8    FF 00 36 14 14 80 00 00 
   276)     13244.640 1  Rx        0635 -  8    16 37 01 00 40 00 1A 51 
   277)     13245.348 1  Rx        0636 -  8    FF 00 37 14 14 80 00 00 
   278)     13245.598 1  Rx        04FF -  8    10 00 01 EC 00 00 00 00 
   279)     13249.473 1  Rx        04FE -  8    20 01 90 00 09 4D 00 2B 
   280)     13251.847 1  Rx        0635 -  8    15 38 01 03 01 00 00 00 
   281)     13253.389 1  Rx        0636 -  8    FF 00 38 14 14 80 00 00 
   282)     13257.847 1  Rx        0635 -  8    16 39 01 00 40 00 1A 52 
   283)     13259.430 1  Rx        0636 -  8    FF 00 39 14 14 80 00 00 
   284)     13263.638 1  Rx        0635 -  8    15 3A 01 03 02 00 00 00 
   285)     13265.430 1  Rx        0636 -  8    FF 00 3A 14 14 80 00 00 
   286)     13269.846 1  Rx        0635 -  8    16 3B 01 00 40 00 1A 53 
   287)     13271.471 1  Rx        0636 -  8    FF 00 3B 14 14 80 00 00 
   288)     13275.679 1  Rx        0635 -  8    15 3C 01 03 03 00 00 00 
   289)     13277.470 1  Rx        0636 -  8    FF 00 3C 14 14 80 00 00 
   290)     13281.845 1  Rx        0635 -  8    16 3D 01 00 40 00 25 C2 
   291)     13283.511 1  Rx        0636 -  8    FF 00 3D 14 14 80 00 00 
   292)     13287.844 1  Rx        0635 -  8    15 3E 01 03 04 00 00 00 
   293)     13289.511 1  Rx        0636 -  8    FF 00 3E 14 14 80 00 00 
   294)     13293.635 1  Rx        0635 -  8    16 3F 01 00 40 00 25 D3 
   295)     13295.552 1  Rx        0636 -  8    FF 00 3F 14 14 80 00 00 
   296)     13299.843 1  Rx        0635 -  8    0D 40 00 00 00 00 00 00 
   297)     13301.551 1  Rx        0636 -  8    FF 00 40 00 00 80 00 00 
   298)     13305.843 1  Rx        0635 -  8    0C 41 02 00 00 00 00 00 
   299)     13307.593 1  Rx        0636 -  8    FF 00 41 00 00 80 00 00 
   300)     13345.798 1  Rx        04FF -  8    10 00 01 EC 00 00 00 00 
   301)     13349.797 1  Rx        04FE -  8    20 01 90 00 09 4D 00 2C 
   302)     13393.585 1  Rx        0635 -  8    06 42 01 00 00 00 00 01 
   303)     13393.918 1  Rx        0636 -  8    FF 00 42 00 00 80 00 00 
   304)     13398.543 1  Rx        0635 -  8    06 43 01 01 03 01 00 01 
   305)     13399.918 1  Rx        0636 -  8    FF 00 43 00 00 80 00 00 
   306)     13401.918 1  Rx        0636 -  8    00 00 62 00 7E 00 0A 01 
   307)     13410.125 1  Rx        0636 -  8    00 00 62 00 7E 00 0A 01 
   308)     13420.166 1  Rx        0636 -  8    00 00 62 00 7D 00 0A 01 
   309)     13430.207 1  Rx        0636 -  8    00 00 62 00 7D 00 0A 01 
   310)     13440.248 1  Rx        0636 -  8    00 00 62 00 7C 00 0B 01 
   311)     13446.164 1  Rx        04FF -  8    10 00 01 EC 00 00 00 00 
   312)     13450.163 1  Rx        04FE -  8    20 01 90 00 09 4D 00 2D 
   313)     13450.413 1  Rx        0636 -  8    00 00 62 00 7A 00 0A 01 
   314)     13452.121 1  Rx        0636 -  8    14 00 00 08 64 02 46 00 
   315)     13454.121 1  Rx        0636 -  8    15 01 85 02 3C 02 02 00 
   316)     13456.121 1  Rx        0636 -  8    16 00 00 00 00 00 00 00 
   317)     13458.121 1  Rx        0636 -  8    17 00 00 00 00 00 00 00 
   318)     13460.287 1  Rx        0636 -  8    00 00 62 00 7F 00 0B 01 
   319)     13470.328 1  Rx        0636 -  8    00 00 62 00 7C 00 0B 01 
   320)     13480.369 1  Rx        0636 -  8    00 00 62 00 7F 00 0A 01 
   321)     13490.410 1  Rx        0636 -  8    00 00 62 00 7B 00 0A 01 
   322)     13500.451 1  Rx        0636 -  8    00 00 62 00 7D 00 0A 01 
   323)     13510.491 1  Rx        0636 -  8    00 00 62 00 7C 00 0B 01 
   324)     13520.532 1  Rx        0636 -  8    00 00 62 00 7D 00 0A 01 
   325)     13530.573 1  Rx        0636 -  8    00 00 62 00 7D 00 0B 01 
   326)     13540.572 1  Rx        0636 -  8    00 00 62 00 7C 00 0A 01 
   327)     13546.530 1  Rx        04FF -  8    10 00 01 EC 00 00 00 00 
   328)     13550.530 1  Rx        04FE -  8    20 01 90 00 0A 4D 00 2E 
   329)     13550.779 1  Rx        0636 -  8    00 00 62 00 7E 00 0A 01 
   330)     13552.488 1  Rx        0636 -  8    14 00 00 08 65 02 46 00 
   331)     13554.487 1  Rx        0636 -  8    15 01 85 02 3C 02 02 00 
   332)     13556.487 1  Rx        0636 -  8    16 00 00 00 00 00 00 00 
   333)     13558.487 1  Rx        0636 -  8    17 00 00 00 00 00 00 00 
   334)     13560.654 1  Rx        0636 -  8    00 00 62 00 7F 00 0A 01 
   335)     13570.694 1  Rx        0636 -  8    00 00 62 00 7B 00 0A 01 
   336)     13580.735 1  Rx        0636 -  8    00 00 62 00 7E 00 0A 01 
   337)     13590.776 1  Rx        0636 -  8    00 00 62 00 7E 00 0B 01 
   338)     13600.817 1  Rx        0636 -  8    00 00 62 00 7E 00 0A 01 
   339)     13610.858 1  Rx        0636 -  8    00 00 62 00 7D 00 0B 01 
   340)     13620.898 1  Rx        0636 -  8    00 00 62 00 7E 00 0B 01 
   341)     13630.939 1  Rx        0636 -  8    00 00 62 00 7E 00 0A 01 
   342)     13640.938 1  Rx        0636 -  8    00 00 62 00 7C 00 0A 01 
   343)     13646.854 1  Rx        04FF -  8    10 00 01 EC 00 00 00 00 
   344)     13650.896 1  Rx        04FE -  8    20 01 90 00 0A 4D 00 20 
   345)     13651.146 1  Rx        0636 -  8    00 00 62 00 7D 00 0A 01 
   346)     13652.812 1  Rx        0636 -  8    14 00 00 08 66 02 46 00 
   347)     13654.812 1  Rx        0636 -  8    15 01 85 02 3C 02 02 00 
   348)     13656.853 1  Rx        0636 -  8    16 00 00 00 00 00 00 00 
   349)     13658.853 1  Rx        0636 -  8    17 00 00 00 00 00 00 00 
   350)     13661.020 1  Rx        0636 -  8    00 00 62 00 7B 00 0B 01 
   351)     13671.061 1  Rx        0636 -  8    00 00 62 00 7F 00 0A 01 
   352)     13681.101 1  Rx        0636 -  8    00 00 62 00 7E 00 0A 01 
   353)     13691.142 1  Rx        0636 -  8    00 00 62 00 7C 00 0A 01 
   354)     13701.183 1  Rx        0636 -  8    00 00 62 00 7D 00 0A 01 
   355)     13711.224 1  Rx        0636 -  8    00 00 62 00 7B 00 0B 01 
   356)     13721.264 1  Rx        0636 -  8    00 00 62 00 7A 00 0A 01 
   357)     13731.264 1  Rx        0636 -  8    00 00 62 00 7D 00 0A 01 
   358)     13741.304 1  Rx        0636 -  8    00 00 62 00 7D 00 0A 01 
   359)     13747.221 1  Rx        04FF -  8    10 00 01 EC 00 00 00 00 
   360)     13751.262 1  Rx        04FE -  8    20 01 90 00 09 4D 00 21 
   361)     13751.512 1  Rx        0636 -  8    00 00 62 00 7D 00 0B 01 
   362)     13753.178 1  Rx        0636 -  8    14 00 00 08 65 02 46 00 
   363)     13755.178 1  Rx        0636 -  8    15 01 85 02 3C 02 02 00 
   364)     13757.220 1  Rx        0636 -  8    16 00 00 00 00 00 00 00 
   365)     13759.219 1  Rx        0636 -  8    17 00 00 00 00 00 00 00 
   366)     13761.386 1  Rx        0636 -  8    00 00 62 00 7C 00 0A 01 
   367)     13771.427 1  Rx        0636 -  8    00 00 62 00 7C 00 0A 01 
   368)     13781.468 1  Rx        0636 -  8    00 00 62 00 7D 00 0A 01 
   369)     13791.508 1  Rx        0636 -  8    00 00 62 00 7C 00 0B 01 
   370)     13801.549 1  Rx        0636 -  8    00 00 62 00 7E 00 0A 01 
   371)     13811.590 1  Rx        0636 -  8    00 00 62 00 7C 00 0A 01 
   372)     13821.589 1  Rx        0636 -  8    00 00 62 00 7C 00 0A 01 
   373)     13831.630 1  Rx        0636 -  8    00 00 62 00 7D 00 0B 01 
   374)     13841.671 1  Rx        0636 -  8    00 00 62 00 7F 00 0B 01 
   375)     13847.587 1  Rx        04FF -  8    10 00 01 EC 00 00 00 00 
   376)     13851.628 1  Rx        04FE -  8    20 01 90 00 09 4D 00 22 
   377)     13851.878 1  Rx        0636 -  8    00 00 62 00 7E 00 0A 01 
   378)     13853.545 1  Rx        0636 -  8    14 00 00 08 65 02 46 00 
   379)     13855.544 1  Rx        0636 -  8    15 01 85 02 3C 02 02 00 
   380)     13857.586 1  Rx        0636 -  8    16 00 00 00 00 00 00 00 
   381)     13859.586 1  Rx        0636 -  8    17 00 00 00 00 00 00 00 
   382)     13861.752 1  Rx        0636 -  8    00 00 62 00 7C 00 0A 01 
   383)     13871.793 1  Rx        0636 -  8    00 00 62 00 7F 00 0A 01 
   384)     13881.834 1  Rx        0636 -  8    00 00 62 00 7C 00 0A 01 
   385)     13891.874 1  Rx        0636 -  8    00 00 62 00 7E 00 0A 01 
   386)     13901.915 1  Rx        0636 -  8    00 00 62 00 7E 00 0A 01 
   387)     13911.914 1  Rx        0636 -  8    00 00 62 00 7A 00 0A 01 
   388)     13921.985 1  Rx        0636 -  8    00 00 62 00 7B 00 0A 01 
   389)     13932.026 1  Rx        0636 -  8    00 00 62 00 7D 00 0A 01 
   390)     13942.067 1  Rx        0636 -  8    00 00 62 00 7C 00 0A 01 
   391)     13947.983 1  Rx        04FF -  8    10 00 01 EC 00 00 00 00 
   392)     13952.024 1  Rx        04FE -  8    20 01 90 00 0A 4D 00 23 
   393)     13952.274 1  Rx        0636 -  8    00 00 63 00 7E 00 0A 01 
   394)     13953.941 1  Rx        0636 -  8    14 00 00 08 66 02 46 00 
   395)     13955.940 1  Rx        0636 -  8    15 01 85 02 3C 02 02 00 
   396)     13957.982 1  Rx        0636 -  8    16 00 00 00 00 00 00 00 
   397)     13959.982 1  Rx        0636 -  8    17 00 00 00 00 00 00 00 
   398)     13962.148 1  Rx        0636 -  8    00 00 63 00 7D 00 0A 01 
   399)     13972.189 1  Rx        0636 -  8    00 00 63 00 7C 00 0A 01 
   400)     13982.230 1  Rx        0636 -  8    00 00 63 00 7D 00 0A 01 
   401)     13992.229 1  Rx        0636 -  8    00 00 63 00 7D 00 0B 01 
   402)     14002.270 1  Rx        0636 -  8    00 00 63 00 7C 00 0A 01 
   403)     14012.311 1  Rx        0636 -  8    00 00 63 00 7D 00 0B 01 
   404)     14022.351 1  Rx        0636 -  8    00 00 63 00 7E 00 0B 01 
   405)     14032.392 1  Rx        0636 -  8    00 00 63 00 7D 00 0A 01 
   406)     14042.433 1  Rx        0636 -  8    00 00 63 00 7E 00 0A 01 
   407)     14048.349 1  Rx        04FF -  8    10 00 01 EA 00 00 00 00 
   408)     14052.390 1  Rx        04FE -  8    20 01 90 00 09 4D 00 24 
   409)     14052.640 1  Rx        0636 -  8    00 00 63 00 7E 00 0A 01 
   410)     14054.307 1  Rx        0636 -  8    14 00 00 08 66 02 46 00 
   411)     14056.307 1  Rx        0636 -  8    15 01 85 02 3C 02 02 00 
   412)     14058.348 1  Rx        0636 -  8    16 00 00 00 00 00 00 00 
   413)     14060.348 1  Rx        0636 -  8    17 00 00 00 00 00 00 00 
   414)     14062.514 1  Rx        0636 -  8    00 00 63 00 7D 00 0B 01 
   415)     14072.555 1  Rx        0636 -  8    00 00 63 00 7D 00 0A 01 
   416)     14082.554 1  Rx        0636 -  8    00 00 63 00 7D 00 0B 01 
   417)     14092.595 1  Rx        0636 -  8    00 00 63 00 7D 00 0A 01 
   418)     14102.636 1  Rx        0636 -  8    00 00 63 00 7C 00 0A 01 
   419)     14112.677 1  Rx        0636 -  8    00 00 63 00 7C 00 0A 01 
   420)     14122.717 1  Rx        0636 -  8    00 00 63 00 7D 00 0A 01 
   421)     14132.758 1  Rx        0636 -  8    00 00 63 00 7F 00 0A 01 
   422)     14142.799 1  Rx        0636 -  8    00 00 63 00 7E 00 0A 01 
   423)     14148.715 1  Rx        04FF -  8    10 00 01 EA 00 00 00 00 
   424)     14152.757 1  Rx        04FE -  8    20 01 90 00 0A 4D 00 25 
   425)     14152.965 1  Rx        0636 -  8    00 00 63 00 7D 00 0A 01 
   426)     14154.673 1  Rx        0636 -  8    14 00 00 08 64 02 46 00 
   427)     14156.673 1  Rx        0636 -  8    15 01 85 02 3C 02 02 00 
   428)     14158.673 1  Rx        0636 -  8    16 00 00 00 00 00 00 00 
   429)     14160.714 1  Rx        0636 -  8    17 00 00 00 00 00 00 00 
   430)     14162.881 1  Rx        0636 -  8    00 00 63 00 7C 00 0A 01 
   431)     14172.880 1  Rx        0636 -  8    00 00 63 00 7E 00 0A 01 
   432)     14182.962 1  Rx        0636 -  8    00 00 63 00 80 00 0B 01 
   433)     14193.003 1  Rx        0636 -  8    00 00 63 00 7D 00 0A 01 
   434)     14203.044 1  Rx        0636 -  8    00 00 63 00 80 00 0A 01 
   435)     14213.085 1  Rx        0636 -  8    00 00 63 00 7D 00 0A 01 
   436)     14223.125 1  Rx        0636 -  8    00 00 63 00 7E 00 0B 01 
   437)     14233.166 1  Rx        0636 -  8    00 00 63 00 7F 00 0B 01 
   438)     14243.207 1  Rx        0636 -  8    00 00 63 00 7B 00 0A 01 
   439)     14249.123 1  Rx        04FF -  8    10 00 01 EA 00 00 00 00 
   440)     14253.123 1  Rx        04FE -  8    20 01 90 00 09 4D 00 26 
   441)     14253.373 1  Rx        0636 -  8    00 00 63 00 7E 00 0A 01 
   442)     14255.081 1  Rx        0636 -  8    14 00 00 08 64 02 46 00 
   443)     14257.081 1  Rx        0636 -  8    15 01 84 02 3C 02 02 00 
   444)     14259.080 1  Rx        0636 -  8    16 00 00 00 00 00 00 00 
   445)     14261.122 1  Rx        0636 -  8    16 00 00 00 00 00 00 00 
   446)     14263.247 1  Rx        0636 -  8    00 00 63 00 7C 00 0A 01 
   447)     14273.288 1  Rx        0636 -  8    00 00 63 00 7F 00 0B 01 
   448)     14283.328 1  Rx        0636 -  8    00 00 63 00 7B 00 0A 01 
   449)     14293.369 1  Rx        0636 -  8    00 00 63 00 7D 00 0A 01 
   450)     14303.410 1  Rx        0636 -  8    00 00 63 00 7E 00 0B 01 
   451)     14313.451 1  Rx        0636 -  8    00 00 63 00 7E 00 0A 01 
   452)     14323.491 1  Rx        0636 -  8    00 00 63 00 7A 00 0A 01 
   453)     14333.532 1  Rx        0636 -  8    00 00 63 00 7E 00 0A 01 
   454)     14343.573 1  Rx        0636 -  8    00 00 63 00 7F 00 0A 01 
   455)     14349.489 1  Rx        04FF -  8    10 00 01 EA 00 00 00 00 
   456)     14353.489 1  Rx        04FE -  8    20 01 90 00 09 4D 00 27 
   457)     14353.739 1  Rx        0636 -  8    00 00 63 00 7E 00 0A 01 
   458)     14355.447 1  Rx        0636 -  8    14 00 00 08 64 02 46 00 
   459)     14357.447 1  Rx        0636 -  8    15 01 84 02 3C 02 02 00 
   460)     14359.447 1  Rx        0636 -  8    16 00 00 00 00 00 00 00 
   461)     14361.446 1  Rx        0636 -  8    17 00 00 00 00 00 00 00 
   462)     14363.613 1  Rx        0636 -  8    00 00 63 00 7D 00 0B 01 
   463)     14373.654 1  Rx        0636 -  8    00 00 63 00 7C 00 0A 01 
   464)     14383.695 1  Rx        0636 -  8    00 00 63 00 7D 00 0A 01 
   465)     14393.735 1  Rx        0636 -  8    00 00 63 00 7F 00 0A 01 
   466)     14403.776 1  Rx        0636 -  8    00 00 63 00 7D 00 0B 01 
   467)     14413.817 1  Rx        0636 -  8    00 00 63 00 7D 00 0A 01 
   468)     14423.858 1  Rx        0636 -  8    00 00 63 00 7F 00 0A 01 
   469)     14433.898 1  Rx        0636 -  8    00 00 63 00 7D 00 0A 01 
   470)     14443.939 1  Rx        0636 -  8    00 00 63 00 7D 00 0A 01 
   471)     14449.855 1  Rx        04FF -  8    10 00 01 EA 00 00 00 00 
   472)     14453.855 1  Rx        04FE -  8    20 01 90 00 09 4D 00 28 
   473)     14454.105 1  Rx        0636 -  8    00 00 63 00 7D 00 0B 01 
   474)     14455.813 1  Rx        0636 -  8    14 00 00 08 64 02 46 00 
   475)     14457.813 1  Rx        0636 -  8    15 01 84 02 3C 02 02 00 
   476)     14459.813 1  Rx        0636 -  8    16 00 00 00 00 00 00 00 
   477)     14461.813 1  Rx        0636 -  8    17 00 00 00 00 00 00 00 
   478)     14463.979 1  Rx        0636 -  8    00 00 63 00 7F 00 0A 01 
   479)     14474.020 1  Rx        0636 -  8    00 00 63 00 7D 00 0A 01 
   480)     14484.061 1  Rx        0636 -  8    00 00 63 00 7F 00 0A 01 
   481)     14494.101 1  Rx        0636 -  8    00 00 63 00 7C 00 0A 01 
   482)     14504.142 1  Rx        0636 -  8    00 00 63 00 7D 00 0B 01 
   483)     14514.183 1  Rx        0636 -  8    00 00 63 00 7D 00 0A 01 
   484)     14524.224 1  Rx        0636 -  8    00 00 63 00 7E 00 0A 01 
   485)     14534.265 1  Rx        0636 -  8    00 00 63 00 7C 00 0A 01 
   486)     14544.264 1  Rx        0636 -  8    00 00 63 00 80 00 0B 01 
   487)     14550.180 1  Rx        04FF -  8    10 00 01 EA 00 00 00 00 
   488)     14554.221 1  Rx        04FE -  8    20 01 90 00 09 4D 00 29 
   489)     14554.471 1  Rx        0636 -  8    00 00 63 00 7C 00 0A 01 
   490)     14556.179 1  Rx        0636 -  8    14 00 00 08 65 02 46 00 
   491)     14558.179 1  Rx        0636 -  8    15 01 84 02 3C 02 02 00 
   492)     14560.179 1  Rx        0636 -  8    16 00 00 00 00 00 00 00 
   493)     14562.179 1  Rx        0636 -  8    17 00 00 00 00 00 00 00 
   494)     14564.345 1  Rx        0636 -  8    00 00 63 00 7B 00 0A 01 
   495)     14574.386 1  Rx        0636 -  8    00 00 63 00 7F 00 0B 01 
   496)     14584.427 1  Rx        0636 -  8    00 00 63 00 7E 00 0A 01 
   497)     14594.468 1  Rx        0636 -  8    00 00 63 00 7D 00 0A 01 
   498)     14604.508 1  Rx        0636 -  8    00 00 63 00 7B 00 0B 01 
   499)     14614.549 1  Rx        0636 -  8    00 00 63 00 7D 00 0A 01 
   500)     14624.590 1  Rx        0636 -  8    00 00 63 00 7D 00 0A 01 
   501)     14634.589 1  Rx        0636 -  8    00 00 63 00 80 00 0B 01 
   502)     14644.630 1  Rx        0636 -  8    00 00 63 00 7B 00 0A 01 
   503)     14650.546 1  Rx        04FF -  8    10 00 01 EA 00 00 00 00 
   504)     14654.587 1  Rx        04FE -  8    20 01 90 00 09 4D 00 2A 
   505)     14654.837 1  Rx        0636 -  8    00 00 63 00 7C 00 0A 01 
   506)     14656.504 1  Rx        0636 -  8    14 00 00 08 64 02 46 00 
   507)     14658.504 1  Rx        0636 -  8    15 01 84 02 3C 02 02 00 
   508)     14660.545 1  Rx        0636 -  8    16 00 00 00 00 00 00 00 
   509)     14662.545 1  Rx        0636 -  8    17 00 00 00 00 00 00 00 
   510)     14664.711 1  Rx        0636 -  8    00 00 63 00 7C 00 0A 01 
   511)     14674.752 1  Rx        0636 -  8    00 00 63 00 7C 00 0A 01 
   512)     14684.793 1  Rx        0636 -  8    00 00 63 00 7C 00 0B 01 
   513)     14694.834 1  Rx        0636 -  8    00 00 63 00 7E 00 0A 01 
   514)     14704.875 1  Rx        0636 -  8    00 00 63 00 7C 00 0A 01 
   515)     14714.915 1  Rx        0636 -  8    00 00 63 00 7E 00 0A 01 
   516)     14724.914 1  Rx        0636 -  8    00 00 63 00 7E 00 0B 01 
   517)     14734.955 1  Rx        0636 -  8    00 00 63 00 7E 00 0A 01 
   518)     14744.996 1  Rx        0636 -  8    00 00 63 00 7C 00 0A 01 
   519)     14750.912 1  Rx        04FF -  8    10 00 01 EA 00 00 00 00 
   520)     14754.954 1  Rx        04FE -  8    20 01 90 00 09 4D 00 2B 
   521)     14755.203 1  Rx        0636 -  8    00 00 63 00 7E 00 0A 01 
   522)     14756.870 1  Rx        0636 -  8    14 00 00 08 65 02 46 00 
   523)     14758.870 1  Rx        0636 -  8    15 01 84 02 3C 02 02 00 
   524)     14760.911 1  Rx        0636 -  8    16 00 00 00 00 00 00 00 
   525)     14762.911 1  Rx        0636 -  8    17 00 00 00 00 00 00 00 
   526)     14765.078 1  Rx        0636 -  8    00 00 63 00 7D 00 0A 01 
   527)     14775.118 1  Rx        0636 -  8    00 00 63 00 7C 00 0A 01 
   528)     14785.159 1  Rx        0636 -  8    00 00 63 00 7E 00 0A 01 
   529)     14795.200 1  Rx        0636 -  8    00 00 63 00 7D 00 0B 01 
   530)     14805.241 1  Rx        0636 -  8    00 00 63 00 7D 00 0A 01 
   531)     14815.240 1  Rx        0636 -  8    00 00 63 00 7C 00 0A 01 
   532)     14825.281 1  Rx        0636 -  8    00 00 63 00 7C 00 0B 01 
   533)     14835.321 1  Rx        0636 -  8    00 00 63 00 7C 00 0A 01 
   534)     14845.362 1  Rx        0636 -  8    00 00 63 00 7D 00 0B 01 
   535)     14851.278 1  Rx        04FF -  8    10 00 01 EA 00 00 00 00 
   536)     14855.320 1  Rx        04FE -  8    20 01 90 00 09 4D 00 2C 
   537)     14855.570 1  Rx        0636 -  8    00 00 63 00 7E 00 0A 01 
   538)     14857.236 1  Rx        0636 -  8    14 00 00 08 64 02 46 00 
   539)     14859.236 1  Rx        0636 -  8    15 01 84 02 3C 02 02 00 
   540)     14861.277 1  Rx        0636 -  8    16 00 00 00 00 00 00 00 
   541)     14863.277 1  Rx        0636 -  8    17 00 00 00 00 00 00 00 
   542)     14865.444 1  Rx        0636 -  8    00 00 63 00 7D 00 0A 01 
   543)     14875.485 1  Rx        0636 -  8    00 00 63 00 7D 00 0A 01 
   544)     14885.525 1  Rx        0636 -  8    00 00 63 00 7D 00 0A 01 
   545)     14895.566 1  Rx        0636 -  8    00 00 63 00 7F 00 0B 01 
   546)     14905.565 1  Rx        0636 -  8    00 00 63 00 7C 00 0A 01 
   547)     14915.606 1  Rx        0636 -  8    00 00 63 00 80 00 0A 01 
   548)     14925.647 1  Rx        0636 -  8    00 00 63 00 7F 00 0B 01 
   549)     14935.688 1  Rx        0636 -  8    00 00 63 00 80 00 0A 01 
   550)     14945.727 1  Rx        0636 -  8    00 00 63 00 7C 00 0B 01 
   551)     14951.644 1  Rx        04FF -  8    10 00 01 EA 00 00 00 00 
   552)     14955.685 1  Rx        04FE -  8    20 01 90 00 0A 4D 00 2D 
   553)     14955.935 1  Rx        0636 -  8    00 00 63 00 7E 00 0A 01 
   554)     14957.601 1  Rx        0636 -  8    14 00 00 08 66 02 46 00 
   555)     14959.601 1  Rx        0636 -  8    15 01 84 02 3C 02 02 00 
   556)     14961.643 1  Rx        0636 -  8    16 00 00 00 00 00 00 00 
   557)     14963.642 1  Rx        0636 -  8    17 00 00 00 00 00 00 00 
   558)     14965.809 1  Rx        0636 -  8    00 00 63 00 7D 00 0A 01 
   559)     14975.850 1  Rx        0636 -  8    00 00 63 00 7B 00 0A 01 
   560)     14985.891 1  Rx        0636 -  8    00 00 63 00 7C 00 0B 01 
   561)     14995.890 1  Rx        0636 -  8    00 00 63 00 7C 00 0B 01 
   562)     15005.930 1  Rx        0636 -  8    00 00 63 00 7D 00 0A 01 
   563)     15015.971 1  Rx        0636 -  8    00 00 63 00 7F 00 0B 01 
   564)     15026.012 1  Rx        0636 -  8    00 00 63 00 7D 00 0A 01 
   565)     15036.053 1  Rx        0636 -  8    00 00 63 00 7E 00 0A 01 
   566)     15046.094 1  Rx        0636 -  8    00 00 63 00 7D 00 0A 01 
   567)     15052.010 1  Rx        04FF -  8    10 00 01 EA 00 00 00 00 
   568)     15056.051 1  Rx        04FE -  8    20 01 90 00 09 4D 00 2E 
   569)     15056.259 1  Rx        0636 -  8    00 00 63 00 7D 00 0A 01 
   570)     15057.968 1  Rx        0636 -  8    14 00 00 08 64 02 46 00 
   571)     15059.967 1  Rx        0636 -  8    15 01 84 02 3C 02 02 00 
   572)     15062.009 1  Rx        0636 -  8    16 00 00 00 00 00 00 00 
   573)     15064.009 1  Rx        0636 -  8    17 00 00 00 00 00 00 00 
   574)     15066.175 1  Rx        0636 -  8    00 00 63 00 7D 00 0B 01 
   575)     15076.216 1  Rx        0636 -  8    00 00 63 00 7C 00 0A 01 
   576)     15086.215 1  Rx        0636 -  8    00 00 63 00 7C 00 0A 01 
   577)     15096.256 1  Rx        0636 -  8    00 00 63 00 7D 00 0B 01 
   578)     15106.297 1  Rx        0636 -  8    00 00 63 00 7E 00 0B 01 
   579)     15116.337 1  Rx        0636 -  8    00 00 63 00 7E 00 0A 01 
   580)     15126.378 1  Rx        0636 -  8    00 00 63 00 7C 00 0A 01 
   581)     15136.419 1  Rx        0636 -  8    00 00 63 00 7C 00 0A 01 
   582)     15146.460 1  Rx        0636 -  8    00 00 63 00 7D 00 0A 01 
   583)     15152.376 1  Rx        04FF -  8    10 00 01 EA 00 00 00 00 
   584)     15156.417 1  Rx        04FE -  8    20 01 90 00 09 4D 00 20 
   585)     15156.625 1  Rx        0636 -  8    00 00 63 00 7C 00 0A 01 
   586)     15158.334 1  Rx        0636 -  8    14 00 00 08 65 02 46 00 
   587)     15160.333 1  Rx        0636 -  8    15 01 84 02 3C 02 02 00 
   588)     15162.333 1  Rx        0636 -  8    16 00 00 00 00 00 00 00 
   589)     15164.375 1  Rx        0636 -  8    17 00 00 00 00 00 00 00 
   590)     15166.500 1  Rx        0636 -  8    00 00 63 00 7A 00 0A 01 
   591)     15176.540 1  Rx        0636 -  8    00 00 63 00 7C 00 0A 01 
   592)     15186.581 1  Rx        0636 -  8    00 00 63 00 7C 00 0B 01 
   593)     15196.622 1  Rx        0636 -  8    00 00 63 00 7E 00 0B 01 
   594)     15206.663 1  Rx        0636 -  8    00 00 63 00 7D 00 0A 01 
   595)     15216.704 1  Rx        0636 -  8    00 00 63 00 7D 00 0A 01 
   596)     15226.744 1  Rx        0636 -  8    00 00 63 00 7C 00 0A 01 
   597)     15236.785 1  Rx        0636 -  8    00 00 63 00 7E 00 0A 01 
   598)     15246.826 1  Rx        0636 -  8    00 00 63 00 7C 00 0A 01 
   599)     15252.742 1  Rx        04FF -  8    10 00 01 E9 00 00 00 00 
   600)     15256.742 1  Rx        04FE -  8    20 01 90 00 09 4D 00 21 
   601)     15256.992 1  Rx        0636 -  8    00 00 63 00 7F 00 0A 01 
   602)     15258.700 1  Rx        0636 -  8    14 00 00 08 63 02 46 00 
   603)     15260.700 1  Rx        0636 -  8    15 01 84 02 3C 02 02 00 
   604)     15262.699 1  Rx        0636 -  8    16 00 00 00 00 00 00 00 
   605)     15264.741 1  Rx        0636 -  8    16 00 00 00 00 00 00 00 
   606)     15266.866 1  Rx        0636 -  8    00 00 63 00 7D 00 0A 01 
   607)     15276.907 1  Rx        0636 -  8    00 00 63 00 7C 00 0A 01 
   608)     15286.947 1  Rx        0636 -  8    00 00 63 00 7F 00 0A 01 
   609)     15296.988 1  Rx        0636 -  8    00 00 63 00 7E 00 0A 01 
   610)     15307.029 1  Rx        0636 -  8    00 00 63 00 7C 00 0A 01 
   611)     15317.070 1  Rx        0636 -  8    00 00 63 00 7D 00 0A 01 
   612)     15327.110 1  Rx        0636 -  8    00 00 63 00 7D 00 0B 01 
   613)     15337.151 1  Rx        0636 -  8    00 00 63 00 7C 00 0B 01 
   614)     15347.192 1  Rx        0636 -  8    00 00 63 00 7E 00 0B 01 
   615)     15353.108 1  Rx        04FF -  8    10 00 01 E9 00 00 00 00 
   616)     15357.108 1  Rx        04FE -  8    20 01 90 00 0A 4D 00 22 
   617)     15357.358 1  Rx        0636 -  8    00 00 63 00 7C 00 0A 01 
   618)     15359.066 1  Rx        0636 -  8    14 00 00 08 66 02 46 00 
   619)     15361.066 1  Rx        0636 -  8    15 01 84 02 3C 02 02 00 
   620)     15363.066 1  Rx        0636 -  8    16 00 00 00 00 00 00 00 
   621)     15365.065 1  Rx        0636 -  8    17 00 00 00 00 00 00 00 
   622)     15367.232 1  Rx        0636 -  8    00 00 63 00 7E 00 0B 01 
   623)     15377.273 1  Rx        0636 -  8    00 00 63 00 7D 00 0A 01 
   624)     15387.314 1  Rx        0636 -  8    00 00 63 00 7C 00 0B 01 
   625)     15397.354 1  Rx        0636 -  8    00 00 63 00 7C 00 0A 01 
   626)     15407.395 1  Rx        0636 -  8    00 00 63 00 7C 00 0B 01 
   627)     15417.436 1  Rx        0636 -  8    00 00 63 00 7F 00 0B 01 
   628)     15427.477 1  Rx        0636 -  8    00 00 63 00 7F 00 0A 01 
   629)     15437.517 1  Rx        0636 -  8    00 00 63 00 7E 00 0A 01 
   630)     15447.558 1  Rx        0636 -  8    00 00 63 00 7D 00 0A 01 
   631)     15453.474 1  Rx        04FF -  8    10 00 01 E9 00 00 00 00 
   632)     15457.474 1  Rx        04FE -  8    20 01 90 00 09 4D 00 23 
   633)     15457.724 1  Rx        0636 -  8    00 00 63 00 7E 00 0A 01 
   634)     15459.432 1  Rx        0636 -  8    14 00 00 08 65 02 46 00 
   635)     15461.432 1  Rx        0636 -  8    15 01 83 02 3C 02 02 00 
   636)     15463.432 1  Rx        0636 -  8    16 00 00 00 00 00 00 00 
   637)     15465.432 1  Rx        0636 -  8    17 00 00 00 00 00 00 00 
   638)     15467.598 1  Rx        0636 -  8    00 00 63 00 7D 00 0A 01 
   639)     15477.639 1  Rx        0636 -  8    00 00 63 00 7B 00 0A 01 
   640)     15487.680 1  Rx        0636 -  8    00 00 63 00 7D 00 0A 01 
   641)     15497.720 1  Rx        0636 -  8    00 00 63 00 7C 00 0A 01 
   642)     15507.761 1  Rx        0636 -  8    00 00 63 00 7E 00 0A 01 
   643)     15517.802 1  Rx        0636 -  8    00 00 63 00 7E 00 0A 01 
   644)     15527.843 1  Rx        0636 -  8    00 00 63 00 7A 00 0A 01 
   645)     15537.842 1  Rx        0636 -  8    00 00 63 00 80 00 0B 01 
   646)     15547.883 1  Rx        0636 -  8    00 00 63 00 7A 00 0A 01 
   647)     15553.799 1  Rx        04FF -  8    10 00 01 E9 00 00 00 00 
   648)     15557.840 1  Rx        04FE -  8    20 01 90 00 09 4D 00 24 
   649)     15558.090 1  Rx        0636 -  8    00 00 63 00 7C 00 0A 01 
   650)     15559.798 1  Rx        0636 -  8    14 00 00 08 66 02 46 00 
   651)     15561.798 1  Rx        0636 -  8    15 01 83 02 3C 02 02 00 
   652)     15563.798 1  Rx        0636 -  8    16 00 00 00 00 00 00 00 
   653)     15565.798 1  Rx        0636 -  8    17 00 00 00 00 00 00 00 
   654)     15567.964 1  Rx        0636 -  8    00 00 63 00 7D 00 0A 01 
   655)     15578.005 1  Rx        0636 -  8    00 00 63 00 7E 00 0A 01 
   656)     15588.046 1  Rx        0636 -  8    00 00 63 00 7E 00 0A 01 
   657)     15598.087 1  Rx        0636 -  8    00 00 63 00 7E 00 0A 01 
   658)     15608.127 1  Rx        0636 -  8    00 00 63 00 7B 00 0B 01 
   659)     15618.168 1  Rx        0636 -  8    00 00 63 00 7D 00 0B 01 
   660)     15628.167 1  Rx        0636 -  8    00 00 63 00 7F 00 0B 01 
   661)     15638.208 1  Rx        0636 -  8    00 00 63 00 7E 00 0B 01 
   662)     15648.249 1  Rx        0636 -  8    00 00 63 00 7D 00 0A 01 
   663)     15654.165 1  Rx        04FF -  8    10 00 01 E9 00 00 00 00 
   664)     15658.206 1  Rx        04FE -  8    20 01 90 00 0A 4D 00 25 
   665)     15658.456 1  Rx        0636 -  8    00 00 63 00 7C 00 0B 01 
   666)     15660.123 1  Rx        0636 -  8    14 00 00 08 64 02 46 00 
   667)     15662.164 1  Rx        0636 -  8    15 01 83 02 3C 02 02 00 
   668)     15664.164 1  Rx        0636 -  8    16 00 00 00 00 00 00 00 
   669)     15666.164 1  Rx        0636 -  8    17 00 00 00 00 00 00 00 
   670)     15668.330 1  Rx        0636 -  8    00 00 63 00 7C 00 0A 01 
